T12F8 1391:691 SEGGER J-Link V6.32i Log File (0001ms, 6023ms total)
T12F8 1391:691 DLL Compiled: Jul 24 2018 15:19:55 (0001ms, 6023ms total)
T12F8 1391:691 Logging started @ 2019-01-06 11:14 (0001ms, 6023ms total)
T12F8 1391:692 JLINK_SetWarnOutHandler(...) (0000ms, 6023ms total)
T12F8 1391:692 JLINK_OpenEx(...)
Firmware: J-Link ARM V8 compiled Nov 28 2014 13:44:46
Hardware: V8.00
S/N: 17935099
Feature(s): RDI,FlashDL,FlashBP,JFlash
TELNET listener socket opened on port 19021WEBSRV 
Starting webserver (0014ms, 6037ms total)
T12F8 1391:692 WEBSRV Webserver running on local port 19080 (0014ms, 6037ms total)
T12F8 1391:692   returns O.K. (0014ms, 6037ms total)
T12F8 1391:706 JLINK_GetEmuCaps()  returns 0xB9FF7BBF (0000ms, 6037ms total)
T12F8 1391:706 JLINK_TIF_GetAvailable(...) (0000ms, 6037ms total)
T12F8 1391:706 JLINK_SetErrorOutHandler(...) (0000ms, 6037ms total)
T12F8 1391:706 JLINK_ExecCommand("ProjectFile = "D:\PERSONAL\Documents\STM32_Project\Balance_Car\USER\JLinkSettings.ini"", ...).   returns 0x00 (0005ms, 6042ms total)
T12F8 1391:711 JLINK_ExecCommand("Device = STM32F103C8", ...). Device "STM32F103C8" selected.  returns 0x00 (0003ms, 6045ms total)
T12F8 1391:714 JLINK_ExecCommand("DisableConnectionTimeout", ...).   returns 0x01 (0000ms, 6045ms total)
T12F8 1391:714 JLINK_GetHardwareVersion()  returns 0x13880 (0000ms, 6045ms total)
T12F8 1391:714 JLINK_GetDLLVersion()  returns 63209 (0000ms, 6045ms total)
T12F8 1391:714 JLINK_GetFirmwareString(...) (0000ms, 6045ms total)
T12F8 1391:714 JLINK_GetDLLVersion()  returns 63209 (0000ms, 6045ms total)
T12F8 1391:714 JLINK_GetCompileDateTime() (0000ms, 6045ms total)
T12F8 1391:714 JLINK_GetFirmwareString(...) (0000ms, 6045ms total)
T12F8 1391:714 JLINK_GetHardwareVersion()  returns 0x13880 (0000ms, 6045ms total)
T12F8 1391:714 JLINK_TIF_Select(JLINKARM_TIF_SWD)  returns 0x00 (0001ms, 6046ms total)
T12F8 1391:715 JLINK_SetSpeed(50000) (0000ms, 6046ms total)
T12F8 1391:715 JLINK_GetId() >0x10B TIF>Found SW-DP with ID 0x1BA01477 >0x0D TIF> >0x28 TIF> >0x0D TIF> >0x28 TIF> >0x0D TIF> >0x28 TIF> >0x0D TIF> >0x28 TIF> >0x0D TIF> >0x21 TIF> >0x0D TIF> >0x28 TIF> >0x0D TIF> >0x28 TIF> >0x0D TIF> >0x28 TIF> >0x0D TIF> >0x21 TIF> >0x0D TIF> >0x21 TIF> >0x0D TIF> >0x28 TIF> >0x0D TIF> >0x21 TIF> >0x0D TIF> >0x21 TIF> >0x0D TIF> >0x28 TIF> >0x0D TIF> >0x21 TIF> >0x0D TIF> >0x21 TIF> >0x0D TIF> >0x28 TIF> >0x0D TIF> >0x21 TIF> >0x0D TIF> >0x21 TIF> >0x0D TIF>
 >0x28 TIF> >0x0D TIF> >0x21 TIF> >0x0D TIF> >0x21 TIF> >0x0D TIF> >0x28 TIF> >0x0D TIF> >0x21 TIF> >0x0D TIF> >0x21 TIF> >0x0D TIF> >0x28 TIF> >0x0D TIF> >0x21 TIF> >0x0D TIF> >0x21 TIF> >0x10B TIF>Found SW-DP with ID 0x1BA01477 >0x0D TIF> >0x28 TIF> >0x0D TIF> >0x28 TIF> >0x0D TIF> >0x28 TIF> >0x0D TIF> >0x28 TIF> >0x0D TIF> >0x21 TIF> >0x0D TIF> >0x28 TIF>Scanning AP map to find all available APs >0x0D TIF> >0x28 TIF> >0x0D TIF> >0x21 TIF> >0x0D TIF> >0x21 TIF> >0x0D TIF> >0x28 TIF> >0x0D TIF>
 >0x21 TIF> >0x0D TIF> >0x21 TIF>AP[1]: Stopped AP scan as end of AP map has been reachedAP[0]: AHB-AP (IDR: 0x14770011)Iterating through AP map to find AHB-AP to use >0x42 TIF> >0x28 TIF> >0x0D TIF> >0x28 TIF> >0x0D TIF> >0x21 TIF> >0x0D TIF> >0x21 TIF> >0x42 TIF> >0x28 TIF> >0x0D TIF> >0x28 TIF> >0x0D TIF> >0x28 TIF> >0x0D TIF> >0x21 TIF> >0x0D TIF> >0x21 TIF>AP[0]: Core foundAP[0]: AHB-AP ROM base: 0xE00FF000 >0x0D TIF> >0x28 TIF> >0x0D TIF> >0x28 TIF> >0x0D TIF> >0x28 TIF> >0x0D TIF> >0x21 TIF>
 >0x0D TIF> >0x21 TIF>CPUID register: 0x411FC231. Implementer code: 0x41 (ARM)Found Cortex-M3 r1p1, Little endian. -- Max. mem block: 0x00002408 -- CPU_ReadMem(4 bytes @ 0xE000EDF0) -- CPU_WriteMem(4 bytes @ 0xE000EDF0) -- CPU_ReadMem(4 bytes @ 0xE0002000)FPUnit: 6 code (BP) slots and 2 literal slots -- CPU_ReadMem(4 bytes @ 0xE000EDFC) -- CPU_WriteMem(4 bytes @ 0xE000EDFC) -- CPU_ReadMem(4 bytes @ 0xE0001000) -- CPU_WriteMem(4 bytes @ 0xE0001000) -- CPU_ReadMem(4 bytes @ 0xE000ED88)
 -- CPU_WriteMem(4 bytes @ 0xE000ED88) -- CPU_ReadMem(4 bytes @ 0xE000ED88) -- CPU_WriteMem(4 bytes @ 0xE000ED88)CoreSight components:ROMTbl[0] @ E00FF000 -- CPU_ReadMem(16 bytes @ 0xE00FF000) -- CPU_ReadMem(16 bytes @ 0xE000EFF0) -- CPU_ReadMem(16 bytes @ 0xE000EFE0)ROMTbl[0][0]: E000E000, CID: B105E00D, PID: 001BB000 SCS -- CPU_ReadMem(16 bytes @ 0xE0001FF0) -- CPU_ReadMem(16 bytes @ 0xE0001FE0)ROMTbl[0][1]: E0001000, CID: B105E00D, PID: 001BB002 DWT -- CPU_ReadMem(16 bytes @ 0xE0002FF0)
 -- CPU_ReadMem(16 bytes @ 0xE0002FE0)ROMTbl[0][2]: E0002000, CID: B105E00D, PID: 000BB003 FPB -- CPU_ReadMem(16 bytes @ 0xE0000FF0) -- CPU_ReadMem(16 bytes @ 0xE0000FE0)ROMTbl[0][3]: E0000000, CID: B105E00D, PID: 001BB001 ITM -- CPU_ReadMem(16 bytes @ 0xE00FF010) -- CPU_ReadMem(16 bytes @ 0xE0040FF0) -- CPU_ReadMem(16 bytes @ 0xE0040FE0)ROMTbl[0][4]: E0040000, CID: B105900D, PID: 001BB923 TPIU-Lite >0x0D TIF> >0x21 TIF>  returns 0x1BA01477 (0151ms, 6197ms total)
T12F8 1391:866 JLINK_GetDLLVersion()  returns 63209 (0000ms, 6197ms total)
T12F8 1391:866 JLINK_CORE_GetFound()  returns 0x30000FF (0000ms, 6197ms total)
T12F8 1391:866 JLINK_GetDebugInfo(0x100 = JLINKARM_ROM_TABLE_ADDR_INDEX) -- Value=0xE00FF000  returns 0x00 (0000ms, 6197ms total)
T12F8 1391:867 JLINK_GetDebugInfo(0x100 = JLINKARM_ROM_TABLE_ADDR_INDEX) -- Value=0xE00FF000  returns 0x00 (0000ms, 6197ms total)
T12F8 1391:867 JLINK_GetDebugInfo(0x101 = JLINKARM_DEBUG_INFO_ETM_ADDR_INDEX) -- Value=0x00000000  returns 0x00 (0000ms, 6197ms total)
T12F8 1391:867 JLINK_ReadMemEx(0xE0041FF0, 0x0010 Bytes, ..., Flags = 0x02000004) -- CPU_ReadMem(16 bytes @ 0xE0041FF0) - Data: 00 00 00 00 00 00 00 00 00 00 00 00 00 00 00 00  returns 0x10 (0000ms, 6197ms total)
T12F8 1391:867 JLINK_GetDebugInfo(0x102 = JLINKARM_DEBUG_INFO_MTB_ADDR_INDEX) -- Value=0x00000000  returns 0x00 (0001ms, 6198ms total)
T12F8 1391:868 JLINK_GetDebugInfo(0x103 = JLINKARM_DEBUG_INFO_TPIU_ADDR_INDEX) -- Value=0xE0040000  returns 0x00 (0000ms, 6198ms total)
T12F8 1391:868 JLINK_GetDebugInfo(0x104 = JLINKARM_DEBUG_INFO_ITM_ADDR_INDEX) -- Value=0xE0000000  returns 0x00 (0000ms, 6198ms total)
T12F8 1391:868 JLINK_GetDebugInfo(0x105 = JLINKARM_DEBUG_INFO_DWT_ADDR_INDEX) -- Value=0xE0001000  returns 0x00 (0000ms, 6198ms total)
T12F8 1391:868 JLINK_GetDebugInfo(0x106 = JLINKARM_DEBUG_INFO_FPB_ADDR_INDEX) -- Value=0xE0002000  returns 0x00 (0000ms, 6198ms total)
T12F8 1391:868 JLINK_GetDebugInfo(0x107 = JLINKARM_DEBUG_INFO_NVIC_ADDR_INDEX) -- Value=0xE000E000  returns 0x00 (0000ms, 6198ms total)
T12F8 1391:868 JLINK_GetDebugInfo(0x10C = JLINKARM_DEBUG_INFO_DBG_ADDR_INDEX) -- Value=0xE000EDF0  returns 0x00 (0000ms, 6198ms total)
T12F8 1391:868 JLINK_GetDebugInfo(0x01 = Unknown) -- Value=0x00000000  returns 0x00 (0000ms, 6198ms total)
T12F8 1391:868 JLINK_ReadMemU32(0xE000ED00, 0x0001 Items, ...) -- CPU_ReadMem(4 bytes @ 0xE000ED00) - Data: 31 C2 1F 41  returns 0x01 (0001ms, 6199ms total)
T12F8 1391:869 JLINK_GetDebugInfo(0x10F = JLINKARM_DEBUG_INFO_HAS_CORTEX_M_SECURITY_EXT_INDEX) -- Value=0x00000000  returns 0x00 (0000ms, 6199ms total)
T12F8 1391:869 JLINK_SetResetType(JLINKARM_CM3_RESET_TYPE_NORMAL)  returns JLINKARM_CM3_RESET_TYPE_NORMAL (0000ms, 6199ms total)
T12F8 1391:869 JLINK_Reset() -- CPU is running -- CPU_WriteMem(4 bytes @ 0xE000EDF0) -- CPU is running -- CPU_WriteMem(4 bytes @ 0xE000EDFC)Reset: Halt core after reset via DEMCR.VC_CORERESET. >0x35 TIF>Reset: Reset device via AIRCR.SYSRESETREQ. -- CPU is running -- CPU_WriteMem(4 bytes @ 0xE000ED0C) >0x0D TIF> >0x28 TIF> -- CPU_ReadMem(4 bytes @ 0xE000EDF0) -- CPU_ReadMem(4 bytes @ 0xE000EDF0) -- CPU is running -- CPU_WriteMem(4 bytes @ 0xE000EDF0) -- CPU is running -- CPU_WriteMem(4 bytes @ 0xE000EDFC)
 -- CPU_ReadMem(4 bytes @ 0xE000EDF0) -- CPU_WriteMem(4 bytes @ 0xE0002000) -- CPU_ReadMem(4 bytes @ 0xE000EDFC) -- CPU_ReadMem(4 bytes @ 0xE0001000) (0068ms, 6267ms total)
T12F8 1391:937 JLINK_ReadReg(R15 (PC))  returns 0x08001440 (0000ms, 6267ms total)
T12F8 1391:937 JLINK_ReadReg(XPSR)  returns 0x01000000 (0000ms, 6267ms total)
T12F8 1391:937 JLINK_Halt()  returns 0x00 (0000ms, 6267ms total)
T12F8 1391:937 JLINK_ReadMemU32(0xE000EDF0, 0x0001 Items, ...) -- CPU_ReadMem(4 bytes @ 0xE000EDF0) - Data: 03 00 03 00  returns 0x01 (0001ms, 6268ms total)
T12F8 1391:938 JLINK_WriteU32(0xE000EDF0, 0xA05F0003) -- CPU_WriteMem(4 bytes @ 0xE000EDF0)  returns 0x00 (0001ms, 6269ms total)
T12F8 1391:939 JLINK_WriteU32(0xE000EDFC, 0x01000000) -- CPU_WriteMem(4 bytes @ 0xE000EDFC)  returns 0x00 (0001ms, 6270ms total)
T12F8 1391:940 JLINK_GetHWStatus(...)  returns 0x00 (0000ms, 6270ms total)
T12F8 1391:940 JLINK_GetNumBPUnits(Type = 0xFFFFFF00)  returns 0x06 (0000ms, 6270ms total)
T12F8 1391:940 JLINK_GetNumBPUnits(Type = 0xF0)  returns 0x2000 (0000ms, 6270ms total)
T12F8 1391:940 JLINK_GetNumWPUnits()  returns 0x04 (0000ms, 6270ms total)
T12F8 1391:940 JLINK_GetSpeed()  returns 0xFA0 (0000ms, 6270ms total)
T12F8 1391:940 JLINK_ReadMemU32(0xE000E004, 0x0001 Items, ...) -- CPU_ReadMem(4 bytes @ 0xE000E004) - Data: 01 00 00 00  returns 0x01 (0001ms, 6271ms total)
T12F8 1391:941 JLINK_ReadMemU32(0xE000E004, 0x0001 Items, ...) -- CPU_ReadMem(4 bytes @ 0xE000E004) - Data: 01 00 00 00  returns 0x01 (0001ms, 6272ms total)
T12F8 1391:942 JLINK_WriteMemEx(0xE0001000, 0x001C Bytes, ..., Flags = 0x02000004) - Data: 01 00 00 00 00 00 00 00 00 00 00 00 00 00 00 00 ... -- CPU_WriteMem(28 bytes @ 0xE0001000)  returns 0x1C (0002ms, 6274ms total)
T12F8 1391:944 JLINK_ReadReg(R15 (PC))  returns 0x08001440 (0000ms, 6274ms total)
T12F8 1391:944 JLINK_ReadReg(XPSR)  returns 0x01000000 (0000ms, 6274ms total)
T12F8 1391:959 JLINK_ReadMemEx(0xE0001004, 0x0004 Bytes, ..., Flags = 0x02000000) - Data: 00 00 00 00  returns 0x04 (0000ms, 6274ms total)
T12F8 1392:067 JLINK_SetResetType(JLINKARM_CM3_RESET_TYPE_NORMAL)  returns JLINKARM_CM3_RESET_TYPE_NORMAL (0000ms, 6274ms total)
T12F8 1392:067 JLINK_Reset() -- CPU_WriteMem(4 bytes @ 0xE000EDF0) -- CPU_WriteMem(4 bytes @ 0xE000EDFC)Reset: Halt core after reset via DEMCR.VC_CORERESET. >0x35 TIF>Reset: Reset device via AIRCR.SYSRESETREQ. -- CPU_WriteMem(4 bytes @ 0xE000ED0C) >0x0D TIF> >0x28 TIF> -- CPU_ReadMem(4 bytes @ 0xE000EDF0) -- CPU_ReadMem(4 bytes @ 0xE000EDF0) -- CPU_WriteMem(4 bytes @ 0xE000EDF0) -- CPU_WriteMem(4 bytes @ 0xE000EDFC) -- CPU_ReadMem(4 bytes @ 0xE000EDF0) -- CPU_WriteMem(4 bytes @ 0xE0002000)
 -- CPU_ReadMem(4 bytes @ 0xE000EDFC) -- CPU_ReadMem(4 bytes @ 0xE0001000) (0068ms, 6342ms total)
T12F8 1392:136 JLINK_ReadReg(R15 (PC))  returns 0x08001440 (0000ms, 6342ms total)
T12F8 1392:136 JLINK_ReadReg(XPSR)  returns 0x01000000 (0000ms, 6342ms total)
T12F8 1392:138 JLINK_ReadMemEx(0x08001440, 0x003C Bytes, ..., Flags = 0x02000000) -- CPU_ReadMem(64 bytes @ 0x08001440) -- Updating C cache (64 bytes @ 0x08001440) -- Read from C cache (60 bytes @ 0x08001440) - Data: 09 48 80 47 09 48 00 47 FE E7 FE E7 FE E7 FE E7 ...  returns 0x3C (0000ms, 6342ms total)
T12F8 1392:472 JLINK_ReadMemEx(0x40011000, 0x0004 Bytes, ..., Flags = 0x02000000) -- CPU_ReadMem(4 bytes @ 0x40011000) - Data: 44 44 44 44  returns 0x04 (0001ms, 6343ms total)
T12F8 1392:474 JLINK_ReadMemEx(0x40011004, 0x0004 Bytes, ..., Flags = 0x02000000) -- CPU_ReadMem(4 bytes @ 0x40011004) - Data: 44 44 44 44  returns 0x04 (0000ms, 6343ms total)
T12F8 1392:474 JLINK_ReadMemEx(0x40011008, 0x0004 Bytes, ..., Flags = 0x02000000) -- CPU_ReadMem(4 bytes @ 0x40011008) - Data: 00 00 00 00  returns 0x04 (0000ms, 6343ms total)
T12F8 1392:475 JLINK_ReadMemEx(0x4001100C, 0x0004 Bytes, ..., Flags = 0x02000000) -- CPU_ReadMem(4 bytes @ 0x4001100C) - Data: 00 00 00 00  returns 0x04 (0000ms, 6343ms total)
T12F8 1392:475 JLINK_ReadMemEx(0x40011010, 0x0004 Bytes, ..., Flags = 0x02000000) -- CPU_ReadMem(4 bytes @ 0x40011010) - Data: 00 00 00 00  returns 0x04 (0001ms, 6344ms total)
T12F8 1392:476 JLINK_ReadMemEx(0x40011014, 0x0004 Bytes, ..., Flags = 0x02000000) -- CPU_ReadMem(4 bytes @ 0x40011014) - Data: 00 00 00 00  returns 0x04 (0001ms, 6345ms total)
T12F8 1392:477 JLINK_ReadMemEx(0x40011018, 0x0004 Bytes, ..., Flags = 0x02000000) -- CPU_ReadMem(4 bytes @ 0x40011018) - Data: 00 00 00 00  returns 0x04 (0001ms, 6346ms total)
T12F8 1392:481 JLINK_ReadMemEx(0x40021018, 0x0004 Bytes, ..., Flags = 0x02000000) -- CPU_ReadMem(4 bytes @ 0x40021018) - Data: 00 00 00 00  returns 0x04 (0000ms, 6346ms total)
T12F8 1392:482 JLINK_ReadMemEx(0x4002100C, 0x0004 Bytes, ..., Flags = 0x02000000) -- CPU_ReadMem(4 bytes @ 0x4002100C) - Data: 00 00 00 00  returns 0x04 (0001ms, 6347ms total)
T12F8 1395:659 JLINK_ReadReg(R0)  returns 0x00000000 (0001ms, 6348ms total)
T12F8 1395:660 JLINK_ReadReg(R1)  returns 0x00000003 (0000ms, 6348ms total)
T12F8 1395:660 JLINK_ReadReg(R2)  returns 0x40022000 (0000ms, 6348ms total)
T12F8 1395:660 JLINK_ReadReg(R3)  returns 0x04C11DB7 (0000ms, 6348ms total)
T12F8 1395:660 JLINK_ReadReg(R4)  returns 0x00000000 (0000ms, 6348ms total)
T12F8 1395:660 JLINK_ReadReg(R5)  returns 0x00000000 (0000ms, 6348ms total)
T12F8 1395:660 JLINK_ReadReg(R6)  returns 0x00000000 (0000ms, 6348ms total)
T12F8 1395:660 JLINK_ReadReg(R7)  returns 0x00000000 (0000ms, 6348ms total)
T12F8 1395:660 JLINK_ReadReg(R8)  returns 0x00000000 (0000ms, 6348ms total)
T12F8 1395:660 JLINK_ReadReg(R9)  returns 0x20000160 (0000ms, 6348ms total)
T12F8 1395:660 JLINK_ReadReg(R10)  returns 0x00000000 (0000ms, 6348ms total)
T12F8 1395:660 JLINK_ReadReg(R11)  returns 0x00000000 (0000ms, 6348ms total)
T12F8 1395:660 JLINK_ReadReg(R12)  returns 0x00000000 (0000ms, 6348ms total)
T12F8 1395:660 JLINK_ReadReg(R13 (SP))  returns 0x20000720 (0000ms, 6348ms total)
T12F8 1395:660 JLINK_ReadReg(R14)  returns 0xFFFFFFFF (0000ms, 6348ms total)
T12F8 1395:660 JLINK_ReadReg(R15 (PC))  returns 0x08001440 (0000ms, 6348ms total)
T12F8 1395:660 JLINK_ReadReg(XPSR)  returns 0x01000000 (0000ms, 6348ms total)
T12F8 1395:661 JLINK_ReadReg(MSP)  returns 0x20000720 (0000ms, 6348ms total)
T12F8 1395:661 JLINK_ReadReg(PSP)  returns 0x20001000 (0000ms, 6348ms total)
T12F8 1395:661 JLINK_ReadReg(CFBP)  returns 0x00000000 (0000ms, 6348ms total)
T3110 1395:721 JLINK_ReadMemEx(0x08001440, 0x0002 Bytes, ..., Flags = 0x02000000) -- Read from C cache (2 bytes @ 0x08001440) - Data: 09 48  returns 0x02 (0000ms, 6348ms total)
T3110 1395:721 JLINK_SetBPEx(Addr = 0x08000188, Type = 0xFFFFFFF2)  returns 0x00000001 (0000ms, 6348ms total)
T3110 1395:721 JLINK_SetBPEx(Addr = 0x0800048E, Type = 0xFFFFFFF2)  returns 0x00000002 (0000ms, 6348ms total)
T3110 1395:721 JLINK_Go() -- CPU_WriteMem(4 bytes @ 0xE0002000) -- CPU_WriteMem(4 bytes @ 0xE0002000) -- CPU_ReadMem(4 bytes @ 0xE0001000) -- CPU_WriteMem(4 bytes @ 0xE0002008) -- CPU_WriteMem(4 bytes @ 0xE000200C) -- CPU_WriteMem(4 bytes @ 0xE0002010) -- CPU_WriteMem(4 bytes @ 0xE0002014) -- CPU_WriteMem(4 bytes @ 0xE0002018) -- CPU_WriteMem(4 bytes @ 0xE000201C) -- CPU_WriteMem(4 bytes @ 0xE0001004) (0004ms, 6352ms total)
T3110 1395:827 JLINK_IsHalted()  returns TRUE (0002ms, 6354ms total)
T3110 1395:829 JLINK_Halt()  returns 0x00 (0000ms, 6352ms total)
T3110 1395:829 JLINK_IsHalted()  returns TRUE (0000ms, 6352ms total)
T3110 1395:829 JLINK_IsHalted()  returns TRUE (0000ms, 6352ms total)
T3110 1395:829 JLINK_IsHalted()  returns TRUE (0000ms, 6352ms total)
T3110 1395:829 JLINK_ReadReg(R15 (PC))  returns 0x08000188 (0000ms, 6352ms total)
T3110 1395:829 JLINK_ReadReg(XPSR)  returns 0x21000000 (0000ms, 6352ms total)
T3110 1395:830 JLINK_ClrBPEx(BPHandle = 0x00000001)  returns 0x00 (0000ms, 6352ms total)
T3110 1395:830 JLINK_ClrBPEx(BPHandle = 0x00000002)  returns 0x00 (0000ms, 6352ms total)
T3110 1395:830 JLINK_ReadMemU32(0xE000ED30, 0x0001 Items, ...) -- CPU_ReadMem(4 bytes @ 0xE000ED30) - Data: 03 00 00 00  returns 0x01 (0000ms, 6352ms total)
T3110 1395:830 JLINK_ReadMemU32(0xE0001028, 0x0001 Items, ...) -- CPU_ReadMem(4 bytes @ 0xE0001028) - Data: 00 00 00 00  returns 0x01 (0001ms, 6353ms total)
T3110 1395:831 JLINK_ReadMemU32(0xE0001038, 0x0001 Items, ...) -- CPU_ReadMem(4 bytes @ 0xE0001038) - Data: 00 02 00 00  returns 0x01 (0001ms, 6354ms total)
T3110 1395:832 JLINK_ReadMemU32(0xE0001048, 0x0001 Items, ...) -- CPU_ReadMem(4 bytes @ 0xE0001048) - Data: 00 00 00 00  returns 0x01 (0000ms, 6354ms total)
T3110 1395:832 JLINK_ReadMemU32(0xE0001058, 0x0001 Items, ...) -- CPU_ReadMem(4 bytes @ 0xE0001058) - Data: 00 00 00 00  returns 0x01 (0001ms, 6355ms total)
T3110 1395:833 JLINK_ReadReg(R0)  returns 0x20000120 (0000ms, 6355ms total)
T3110 1395:833 JLINK_ReadReg(R1)  returns 0x20000320 (0000ms, 6355ms total)
T3110 1395:833 JLINK_ReadReg(R2)  returns 0x20000320 (0000ms, 6355ms total)
T3110 1395:833 JLINK_ReadReg(R3)  returns 0x20000320 (0000ms, 6355ms total)
T3110 1395:834 JLINK_ReadReg(R4)  returns 0x00000000 (0000ms, 6355ms total)
T3110 1395:834 JLINK_ReadReg(R5)  returns 0x200000BC (0000ms, 6355ms total)
T3110 1395:834 JLINK_ReadReg(R6)  returns 0x00000000 (0000ms, 6355ms total)
T3110 1395:834 JLINK_ReadReg(R7)  returns 0x00000000 (0000ms, 6355ms total)
T3110 1395:834 JLINK_ReadReg(R8)  returns 0x00000000 (0000ms, 6355ms total)
T3110 1395:834 JLINK_ReadReg(R9)  returns 0x20000160 (0000ms, 6355ms total)
T3110 1395:834 JLINK_ReadReg(R10)  returns 0x08004468 (0000ms, 6355ms total)
T3110 1395:834 JLINK_ReadReg(R11)  returns 0x00000000 (0000ms, 6355ms total)
T3110 1395:834 JLINK_ReadReg(R12)  returns 0x200000FC (0000ms, 6355ms total)
T3110 1395:834 JLINK_ReadReg(R13 (SP))  returns 0x20000720 (0000ms, 6355ms total)
T3110 1395:834 JLINK_ReadReg(R14)  returns 0x08000177 (0000ms, 6355ms total)
T3110 1395:834 JLINK_ReadReg(R15 (PC))  returns 0x08000188 (0000ms, 6355ms total)
T3110 1395:834 JLINK_ReadReg(XPSR)  returns 0x21000000 (0000ms, 6355ms total)
T3110 1395:834 JLINK_ReadReg(MSP)  returns 0x20000720 (0000ms, 6355ms total)
T3110 1395:834 JLINK_ReadReg(PSP)  returns 0x20001000 (0000ms, 6355ms total)
T3110 1395:834 JLINK_ReadReg(CFBP)  returns 0x00000000 (0000ms, 6355ms total)
T12F8 1395:843 JLINK_ReadMemU32(0xE0001004, 0x0001 Items, ...) -- CPU_ReadMem(4 bytes @ 0xE0001004) - Data: D1 14 00 00  returns 0x01 (0000ms, 6355ms total)
T12F8 1395:843 JLINK_ReadMemEx(0x40011000, 0x0004 Bytes, ..., Flags = 0x02000000) -- CPU_ReadMem(4 bytes @ 0x40011000) - Data: 44 44 44 44  returns 0x04 (0000ms, 6355ms total)
T12F8 1395:843 JLINK_ReadMemEx(0x40011004, 0x0004 Bytes, ..., Flags = 0x02000000) -- CPU_ReadMem(4 bytes @ 0x40011004) - Data: 44 44 44 44  returns 0x04 (0002ms, 6357ms total)
T12F8 1395:845 JLINK_ReadMemEx(0x40011008, 0x0004 Bytes, ..., Flags = 0x02000000) -- CPU_ReadMem(4 bytes @ 0x40011008) - Data: 00 00 00 00  returns 0x04 (0000ms, 6357ms total)
T12F8 1395:845 JLINK_ReadMemEx(0x4001100C, 0x0004 Bytes, ..., Flags = 0x02000000) -- CPU_ReadMem(4 bytes @ 0x4001100C) - Data: 00 00 00 00  returns 0x04 (0001ms, 6358ms total)
T12F8 1395:846 JLINK_ReadMemEx(0x40011010, 0x0004 Bytes, ..., Flags = 0x02000000) -- CPU_ReadMem(4 bytes @ 0x40011010) - Data: 00 00 00 00  returns 0x04 (0000ms, 6358ms total)
T12F8 1395:846 JLINK_ReadMemEx(0x40011014, 0x0004 Bytes, ..., Flags = 0x02000000) -- CPU_ReadMem(4 bytes @ 0x40011014) - Data: 00 00 00 00  returns 0x04 (0000ms, 6358ms total)
T12F8 1395:846 JLINK_ReadMemEx(0x40011018, 0x0004 Bytes, ..., Flags = 0x02000000) -- CPU_ReadMem(4 bytes @ 0x40011018) - Data: 00 00 00 00  returns 0x04 (0001ms, 6359ms total)
T12F8 1395:847 JLINK_ReadMemEx(0x40021018, 0x0004 Bytes, ..., Flags = 0x02000000) -- CPU_ReadMem(4 bytes @ 0x40021018) - Data: 00 00 00 00  returns 0x04 (0000ms, 6359ms total)
T12F8 1395:847 JLINK_ReadMemEx(0x4002100C, 0x0004 Bytes, ..., Flags = 0x02000000) -- CPU_ReadMem(4 bytes @ 0x4002100C) - Data: 00 00 00 00  returns 0x04 (0001ms, 6360ms total)
T12F8 1395:854 JLINK_ReadMemEx(0x08000188, 0x003C Bytes, ..., Flags = 0x02000000) -- CPU_ReadMem(128 bytes @ 0x08000180) -- Updating C cache (128 bytes @ 0x08000180) -- Read from C cache (60 bytes @ 0x08000188) - Data: 4F F4 E1 30 01 F0 F3 F8 01 F0 78 F8 4F F4 A0 60 ...  returns 0x3C (0001ms, 6361ms total)
T3110 1397:496 JLINK_ReadMemEx(0x08000188, 0x0002 Bytes, ..., Flags = 0x02000000) -- Read from C cache (2 bytes @ 0x08000188) - Data: 4F F4  returns 0x02 (0000ms, 6361ms total)
T3110 1397:496 JLINK_Step() -- Read from C cache (2 bytes @ 0x08000188) -- CPU_ReadMem(4 bytes @ 0xE000ED18) -- CPU_WriteMem(4 bytes @ 0xE000ED18) -- CPU_ReadMem(4 bytes @ 0xE000ED18) -- CPU_WriteMem(4 bytes @ 0xE000ED18) -- Read from C cache (2 bytes @ 0x0800018A) -- Simulated  returns 0x00 (0003ms, 6364ms total)
T3110 1397:499 JLINK_ReadReg(R15 (PC))  returns 0x0800018C (0000ms, 6364ms total)
T3110 1397:499 JLINK_ReadReg(XPSR)  returns 0x21000000 (0000ms, 6364ms total)
T3110 1397:499 JLINK_ReadMemEx(0x0800018A, 0x0002 Bytes, ..., Flags = 0x02000000) -- Read from C cache (2 bytes @ 0x0800018A) - Data: E1 30  returns 0x02 (0000ms, 6364ms total)
T3110 1397:499 JLINK_ReadMemEx(0x0800018C, 0x003C Bytes, ..., Flags = 0x02000000) -- Read from C cache (60 bytes @ 0x0800018C) - Data: 01 F0 F3 F8 01 F0 78 F8 4F F4 A0 60 01 F0 72 F9 ...  returns 0x3C (0000ms, 6364ms total)
T3110 1397:499 JLINK_ReadMemEx(0x0800018C, 0x0002 Bytes, ..., Flags = 0x02000000) -- Read from C cache (2 bytes @ 0x0800018C) - Data: 01 F0  returns 0x02 (0000ms, 6364ms total)
T3110 1397:499 JLINK_SetBPEx(Addr = 0x08000190, Type = 0xFFFFFFF2)  returns 0x00000003 (0000ms, 6364ms total)
T3110 1397:499 JLINK_SetBPEx(Addr = 0x0800048E, Type = 0xFFFFFFF2)  returns 0x00000004 (0000ms, 6364ms total)
T3110 1397:499 JLINK_Go() -- CPU_WriteMem(4 bytes @ 0xE0002000) -- CPU_WriteMem(4 bytes @ 0xE0002000) -- CPU_ReadMem(4 bytes @ 0xE0001000) -- CPU_WriteMem(4 bytes @ 0xE0002008) -- CPU_WriteMem(4 bytes @ 0xE0001004) (0004ms, 6368ms total)
T3110 1397:605 JLINK_IsHalted()  returns TRUE (0003ms, 6371ms total)
T3110 1397:608 JLINK_Halt()  returns 0x00 (0000ms, 6368ms total)
T3110 1397:608 JLINK_IsHalted()  returns TRUE (0000ms, 6368ms total)
T3110 1397:608 JLINK_IsHalted()  returns TRUE (0000ms, 6368ms total)
T3110 1397:608 JLINK_IsHalted()  returns TRUE (0000ms, 6368ms total)
T3110 1397:608 JLINK_ReadReg(R15 (PC))  returns 0x08000190 (0000ms, 6368ms total)
T3110 1397:608 JLINK_ReadReg(XPSR)  returns 0x01000000 (0000ms, 6368ms total)
T3110 1397:608 JLINK_ClrBPEx(BPHandle = 0x00000003)  returns 0x00 (0000ms, 6368ms total)
T3110 1397:608 JLINK_ClrBPEx(BPHandle = 0x00000004)  returns 0x00 (0000ms, 6368ms total)
T3110 1397:608 JLINK_ReadMemU32(0xE000ED30, 0x0001 Items, ...) -- CPU_ReadMem(4 bytes @ 0xE000ED30) - Data: 03 00 00 00  returns 0x01 (0001ms, 6369ms total)
T3110 1397:609 JLINK_ReadMemU32(0xE0001028, 0x0001 Items, ...) -- CPU_ReadMem(4 bytes @ 0xE0001028) - Data: 00 00 00 00  returns 0x01 (0001ms, 6370ms total)
T3110 1397:610 JLINK_ReadMemU32(0xE0001038, 0x0001 Items, ...) -- CPU_ReadMem(4 bytes @ 0xE0001038) - Data: 00 02 00 00  returns 0x01 (0001ms, 6371ms total)
T3110 1397:611 JLINK_ReadMemU32(0xE0001048, 0x0001 Items, ...) -- CPU_ReadMem(4 bytes @ 0xE0001048) - Data: 00 00 00 00  returns 0x01 (0000ms, 6371ms total)
T3110 1397:611 JLINK_ReadMemU32(0xE0001058, 0x0001 Items, ...) -- CPU_ReadMem(4 bytes @ 0xE0001058) - Data: 00 00 00 00  returns 0x01 (0001ms, 6372ms total)
T3110 1397:612 JLINK_ReadReg(R0)  returns 0x40013800 (0000ms, 6372ms total)
T3110 1397:612 JLINK_ReadReg(R1)  returns 0x00000001 (0001ms, 6373ms total)
T3110 1397:613 JLINK_ReadReg(R2)  returns 0x0000202C (0000ms, 6373ms total)
T3110 1397:613 JLINK_ReadReg(R3)  returns 0x40013800 (0000ms, 6373ms total)
T3110 1397:613 JLINK_ReadReg(R4)  returns 0x00000000 (0000ms, 6373ms total)
T3110 1397:613 JLINK_ReadReg(R5)  returns 0x200000BC (0000ms, 6373ms total)
T3110 1397:613 JLINK_ReadReg(R6)  returns 0x00000000 (0000ms, 6373ms total)
T3110 1397:613 JLINK_ReadReg(R7)  returns 0x00000000 (0000ms, 6373ms total)
T3110 1397:613 JLINK_ReadReg(R8)  returns 0x00000000 (0000ms, 6373ms total)
T3110 1397:613 JLINK_ReadReg(R9)  returns 0x20000160 (0000ms, 6373ms total)
T3110 1397:613 JLINK_ReadReg(R10)  returns 0x08004468 (0000ms, 6373ms total)
T3110 1397:613 JLINK_ReadReg(R11)  returns 0x00000000 (0000ms, 6373ms total)
T3110 1397:613 JLINK_ReadReg(R12)  returns 0x00000400 (0000ms, 6373ms total)
T3110 1397:613 JLINK_ReadReg(R13 (SP))  returns 0x20000720 (0000ms, 6373ms total)
T3110 1397:613 JLINK_ReadReg(R14)  returns 0x0800140B (0000ms, 6373ms total)
T3110 1397:613 JLINK_ReadReg(R15 (PC))  returns 0x08000190 (0000ms, 6373ms total)
T3110 1397:614 JLINK_ReadReg(XPSR)  returns 0x01000000 (0000ms, 6373ms total)
T3110 1397:614 JLINK_ReadReg(MSP)  returns 0x20000720 (0000ms, 6373ms total)
T3110 1397:614 JLINK_ReadReg(PSP)  returns 0x20001000 (0000ms, 6373ms total)
T3110 1397:614 JLINK_ReadReg(CFBP)  returns 0x00000000 (0000ms, 6373ms total)
T12F8 1397:616 JLINK_ReadMemU32(0xE0001004, 0x0001 Items, ...) -- CPU_ReadMem(4 bytes @ 0xE0001004) - Data: 86 19 00 00  returns 0x01 (0000ms, 6373ms total)
T12F8 1397:617 JLINK_ReadMemEx(0x40011000, 0x0004 Bytes, ..., Flags = 0x02000000) -- CPU_ReadMem(4 bytes @ 0x40011000) - Data: 44 44 44 44  returns 0x04 (0001ms, 6374ms total)
T12F8 1397:618 JLINK_ReadMemEx(0x40011004, 0x0004 Bytes, ..., Flags = 0x02000000) -- CPU_ReadMem(4 bytes @ 0x40011004) - Data: 44 44 44 44  returns 0x04 (0000ms, 6374ms total)
T12F8 1397:618 JLINK_ReadMemEx(0x40011008, 0x0004 Bytes, ..., Flags = 0x02000000) -- CPU_ReadMem(4 bytes @ 0x40011008) - Data: 00 00 00 00  returns 0x04 (0001ms, 6375ms total)
T12F8 1397:619 JLINK_ReadMemEx(0x4001100C, 0x0004 Bytes, ..., Flags = 0x02000000) -- CPU_ReadMem(4 bytes @ 0x4001100C) - Data: 00 00 00 00  returns 0x04 (0001ms, 6376ms total)
T12F8 1397:620 JLINK_ReadMemEx(0x40011010, 0x0004 Bytes, ..., Flags = 0x02000000) -- CPU_ReadMem(4 bytes @ 0x40011010) - Data: 00 00 00 00  returns 0x04 (0001ms, 6377ms total)
T12F8 1397:621 JLINK_ReadMemEx(0x40011014, 0x0004 Bytes, ..., Flags = 0x02000000) -- CPU_ReadMem(4 bytes @ 0x40011014) - Data: 00 00 00 00  returns 0x04 (0000ms, 6377ms total)
T12F8 1397:621 JLINK_ReadMemEx(0x40011018, 0x0004 Bytes, ..., Flags = 0x02000000) -- CPU_ReadMem(4 bytes @ 0x40011018) - Data: 00 00 00 00  returns 0x04 (0001ms, 6378ms total)
T12F8 1397:622 JLINK_ReadMemEx(0x40021018, 0x0004 Bytes, ..., Flags = 0x02000000) -- CPU_ReadMem(4 bytes @ 0x40021018) - Data: 04 40 00 00  returns 0x04 (0001ms, 6379ms total)
T12F8 1397:623 JLINK_ReadMemEx(0x4002100C, 0x0004 Bytes, ..., Flags = 0x02000000) -- CPU_ReadMem(4 bytes @ 0x4002100C) - Data: 00 00 00 00  returns 0x04 (0000ms, 6379ms total)
T12F8 1397:648 JLINK_ReadMemEx(0x08000190, 0x003C Bytes, ..., Flags = 0x02000000) -- CPU_ReadMem(128 bytes @ 0x08000180) -- Updating C cache (128 bytes @ 0x08000180) -- Read from C cache (60 bytes @ 0x08000190) - Data: 01 F0 78 F8 4F F4 A0 60 01 F0 72 F9 00 F0 2E F9 ...  returns 0x3C (0002ms, 6381ms total)
T3110 1397:712 JLINK_ReadMemEx(0x08000190, 0x0002 Bytes, ..., Flags = 0x02000000) -- Read from C cache (2 bytes @ 0x08000190) - Data: 01 F0  returns 0x02 (0000ms, 6381ms total)
T3110 1397:712 JLINK_SetBPEx(Addr = 0x08000194, Type = 0xFFFFFFF2)  returns 0x00000005 (0000ms, 6381ms total)
T3110 1397:712 JLINK_SetBPEx(Addr = 0x0800048E, Type = 0xFFFFFFF2)  returns 0x00000006 (0000ms, 6381ms total)
T3110 1397:712 JLINK_Go() -- CPU_WriteMem(4 bytes @ 0xE0002000) -- CPU_WriteMem(4 bytes @ 0xE0002000) -- CPU_ReadMem(4 bytes @ 0xE0001000) -- CPU_WriteMem(4 bytes @ 0xE0002008) (0003ms, 6384ms total)
T3110 1397:816 JLINK_IsHalted()  returns TRUE (0002ms, 6386ms total)
T3110 1397:818 JLINK_Halt()  returns 0x00 (0001ms, 6385ms total)
T3110 1397:819 JLINK_IsHalted()  returns TRUE (0000ms, 6385ms total)
T3110 1397:819 JLINK_IsHalted()  returns TRUE (0000ms, 6385ms total)
T3110 1397:819 JLINK_IsHalted()  returns TRUE (0000ms, 6385ms total)
T3110 1397:819 JLINK_ReadReg(R15 (PC))  returns 0x08000194 (0000ms, 6385ms total)
T3110 1397:819 JLINK_ReadReg(XPSR)  returns 0xA1000000 (0000ms, 6385ms total)
T3110 1397:819 JLINK_ClrBPEx(BPHandle = 0x00000005)  returns 0x00 (0000ms, 6385ms total)
T3110 1397:819 JLINK_ClrBPEx(BPHandle = 0x00000006)  returns 0x00 (0000ms, 6385ms total)
T3110 1397:819 JLINK_ReadMemU32(0xE000ED30, 0x0001 Items, ...) -- CPU_ReadMem(4 bytes @ 0xE000ED30) - Data: 03 00 00 00  returns 0x01 (0001ms, 6386ms total)
T3110 1397:820 JLINK_ReadMemU32(0xE0001028, 0x0001 Items, ...) -- CPU_ReadMem(4 bytes @ 0xE0001028) - Data: 00 00 00 00  returns 0x01 (0001ms, 6387ms total)
T3110 1397:821 JLINK_ReadMemU32(0xE0001038, 0x0001 Items, ...) -- CPU_ReadMem(4 bytes @ 0xE0001038) - Data: 00 02 00 00  returns 0x01 (0000ms, 6387ms total)
T3110 1397:821 JLINK_ReadMemU32(0xE0001048, 0x0001 Items, ...) -- CPU_ReadMem(4 bytes @ 0xE0001048) - Data: 00 00 00 00  returns 0x01 (0001ms, 6388ms total)
T3110 1397:822 JLINK_ReadMemU32(0xE0001058, 0x0001 Items, ...) -- CPU_ReadMem(4 bytes @ 0xE0001058) - Data: 00 00 00 00  returns 0x01 (0001ms, 6389ms total)
T3110 1397:823 JLINK_ReadReg(R0)  returns 0x00002328 (0000ms, 6389ms total)
T3110 1397:823 JLINK_ReadReg(R1)  returns 0x20000088 (0000ms, 6389ms total)
T3110 1397:823 JLINK_ReadReg(R2)  returns 0xE000E000 (0000ms, 6389ms total)
T3110 1397:823 JLINK_ReadReg(R3)  returns 0x40013800 (0000ms, 6389ms total)
T3110 1397:823 JLINK_ReadReg(R4)  returns 0x00000000 (0000ms, 6389ms total)
T3110 1397:823 JLINK_ReadReg(R5)  returns 0x200000BC (0000ms, 6389ms total)
T3110 1397:823 JLINK_ReadReg(R6)  returns 0x00000000 (0000ms, 6389ms total)
T3110 1397:823 JLINK_ReadReg(R7)  returns 0x00000000 (0001ms, 6390ms total)
T3110 1397:824 JLINK_ReadReg(R8)  returns 0x00000000 (0000ms, 6390ms total)
T3110 1397:824 JLINK_ReadReg(R9)  returns 0x20000160 (0000ms, 6390ms total)
T3110 1397:824 JLINK_ReadReg(R10)  returns 0x08004468 (0000ms, 6390ms total)
T3110 1397:824 JLINK_ReadReg(R11)  returns 0x00000000 (0000ms, 6390ms total)
T3110 1397:824 JLINK_ReadReg(R12)  returns 0x00000400 (0000ms, 6390ms total)
T3110 1397:824 JLINK_ReadReg(R13 (SP))  returns 0x20000720 (0000ms, 6390ms total)
T3110 1397:824 JLINK_ReadReg(R14)  returns 0x0800128F (0000ms, 6390ms total)
T3110 1397:824 JLINK_ReadReg(R15 (PC))  returns 0x08000194 (0000ms, 6390ms total)
T3110 1397:824 JLINK_ReadReg(XPSR)  returns 0xA1000000 (0000ms, 6390ms total)
T3110 1397:824 JLINK_ReadReg(MSP)  returns 0x20000720 (0000ms, 6390ms total)
T3110 1397:824 JLINK_ReadReg(PSP)  returns 0x20001000 (0000ms, 6390ms total)
T3110 1397:824 JLINK_ReadReg(CFBP)  returns 0x00000000 (0000ms, 6390ms total)
T12F8 1397:825 JLINK_ReadMemU32(0xE0001004, 0x0001 Items, ...) -- CPU_ReadMem(4 bytes @ 0xE0001004) - Data: DB 19 00 00  returns 0x01 (0001ms, 6391ms total)
T12F8 1397:826 JLINK_ReadMemEx(0x40011000, 0x0004 Bytes, ..., Flags = 0x02000000) -- CPU_ReadMem(4 bytes @ 0x40011000) - Data: 44 44 44 44  returns 0x04 (0001ms, 6392ms total)
T12F8 1397:827 JLINK_ReadMemEx(0x40011004, 0x0004 Bytes, ..., Flags = 0x02000000) -- CPU_ReadMem(4 bytes @ 0x40011004) - Data: 44 44 44 44  returns 0x04 (0001ms, 6393ms total)
T12F8 1397:828 JLINK_ReadMemEx(0x40011008, 0x0004 Bytes, ..., Flags = 0x02000000) -- CPU_ReadMem(4 bytes @ 0x40011008) - Data: 00 00 00 00  returns 0x04 (0001ms, 6394ms total)
T12F8 1397:829 JLINK_ReadMemEx(0x4001100C, 0x0004 Bytes, ..., Flags = 0x02000000) -- CPU_ReadMem(4 bytes @ 0x4001100C) - Data: 00 00 00 00  returns 0x04 (0001ms, 6395ms total)
T12F8 1397:830 JLINK_ReadMemEx(0x40011010, 0x0004 Bytes, ..., Flags = 0x02000000) -- CPU_ReadMem(4 bytes @ 0x40011010) - Data: 00 00 00 00  returns 0x04 (0001ms, 6396ms total)
T12F8 1397:831 JLINK_ReadMemEx(0x40011014, 0x0004 Bytes, ..., Flags = 0x02000000) -- CPU_ReadMem(4 bytes @ 0x40011014) - Data: 00 00 00 00  returns 0x04 (0000ms, 6396ms total)
T12F8 1397:831 JLINK_ReadMemEx(0x40011018, 0x0004 Bytes, ..., Flags = 0x02000000) -- CPU_ReadMem(4 bytes @ 0x40011018) - Data: 00 00 00 00  returns 0x04 (0001ms, 6397ms total)
T12F8 1397:832 JLINK_ReadMemEx(0x40021018, 0x0004 Bytes, ..., Flags = 0x02000000) -- CPU_ReadMem(4 bytes @ 0x40021018) - Data: 04 40 00 00  returns 0x04 (0001ms, 6398ms total)
T12F8 1397:833 JLINK_ReadMemEx(0x4002100C, 0x0004 Bytes, ..., Flags = 0x02000000) -- CPU_ReadMem(4 bytes @ 0x4002100C) - Data: 00 00 00 00  returns 0x04 (0001ms, 6399ms total)
T12F8 1397:843 JLINK_ReadMemEx(0x08000194, 0x003C Bytes, ..., Flags = 0x02000000) -- CPU_ReadMem(128 bytes @ 0x08000180) -- Updating C cache (128 bytes @ 0x08000180) -- Read from C cache (60 bytes @ 0x08000194) - Data: 4F F4 A0 60 01 F0 72 F9 00 F0 2E F9 00 F0 EF F9 ...  returns 0x3C (0001ms, 6400ms total)
T3110 1398:159 JLINK_ReadMemEx(0x08000194, 0x0002 Bytes, ..., Flags = 0x02000000) -- Read from C cache (2 bytes @ 0x08000194) - Data: 4F F4  returns 0x02 (0000ms, 6400ms total)
T3110 1398:160 JLINK_Step() -- Read from C cache (2 bytes @ 0x08000194) -- Read from C cache (2 bytes @ 0x08000196) -- Simulated  returns 0x00 (0000ms, 6400ms total)
T3110 1398:160 JLINK_ReadReg(R15 (PC))  returns 0x08000198 (0000ms, 6400ms total)
T3110 1398:160 JLINK_ReadReg(XPSR)  returns 0xA1000000 (0000ms, 6400ms total)
T3110 1398:160 JLINK_ReadMemEx(0x08000196, 0x0002 Bytes, ..., Flags = 0x02000000) -- Read from C cache (2 bytes @ 0x08000196) - Data: A0 60  returns 0x02 (0000ms, 6400ms total)
T3110 1398:160 JLINK_ReadMemEx(0x08000198, 0x003C Bytes, ..., Flags = 0x02000000) -- Read from C cache (60 bytes @ 0x08000198) - Data: 01 F0 72 F9 00 F0 2E F9 00 F0 EF F9 00 21 4F F4 ...  returns 0x3C (0000ms, 6400ms total)
T3110 1398:160 JLINK_ReadMemEx(0x08000198, 0x0002 Bytes, ..., Flags = 0x02000000) -- Read from C cache (2 bytes @ 0x08000198) - Data: 01 F0  returns 0x02 (0000ms, 6400ms total)
T3110 1398:160 JLINK_SetBPEx(Addr = 0x0800019C, Type = 0xFFFFFFF2)  returns 0x00000007 (0000ms, 6400ms total)
T3110 1398:160 JLINK_SetBPEx(Addr = 0x0800048E, Type = 0xFFFFFFF2)  returns 0x00000008 (0000ms, 6400ms total)
T3110 1398:160 JLINK_Go() -- CPU_WriteMem(4 bytes @ 0xE0002000) -- CPU_WriteMem(4 bytes @ 0xE0002000) -- CPU_ReadMem(4 bytes @ 0xE0001000) -- CPU_WriteMem(4 bytes @ 0xE0002008) -- CPU_WriteMem(4 bytes @ 0xE0001004) (0005ms, 6405ms total)
T3110 1398:265 JLINK_IsHalted()  returns TRUE (0003ms, 6408ms total)
T3110 1398:268 JLINK_Halt()  returns 0x00 (0000ms, 6405ms total)
T3110 1398:268 JLINK_IsHalted()  returns TRUE (0000ms, 6405ms total)
T3110 1398:268 JLINK_IsHalted()  returns TRUE (0000ms, 6405ms total)
T3110 1398:268 JLINK_IsHalted()  returns TRUE (0000ms, 6405ms total)
T3110 1398:268 JLINK_ReadReg(R15 (PC))  returns 0x0800019C (0000ms, 6405ms total)
T3110 1398:268 JLINK_ReadReg(XPSR)  returns 0x21000000 (0000ms, 6405ms total)
T3110 1398:268 JLINK_ClrBPEx(BPHandle = 0x00000007)  returns 0x00 (0000ms, 6405ms total)
T3110 1398:268 JLINK_ClrBPEx(BPHandle = 0x00000008)  returns 0x00 (0000ms, 6405ms total)
T3110 1398:268 JLINK_ReadMemU32(0xE000ED30, 0x0001 Items, ...) -- CPU_ReadMem(4 bytes @ 0xE000ED30) - Data: 03 00 00 00  returns 0x01 (0002ms, 6407ms total)
T3110 1398:270 JLINK_ReadMemU32(0xE0001028, 0x0001 Items, ...) -- CPU_ReadMem(4 bytes @ 0xE0001028) - Data: 00 00 00 00  returns 0x01 (0000ms, 6407ms total)
T3110 1398:270 JLINK_ReadMemU32(0xE0001038, 0x0001 Items, ...) -- CPU_ReadMem(4 bytes @ 0xE0001038) - Data: 00 02 00 00  returns 0x01 (0001ms, 6408ms total)
T3110 1398:271 JLINK_ReadMemU32(0xE0001048, 0x0001 Items, ...) -- CPU_ReadMem(4 bytes @ 0xE0001048) - Data: 00 00 00 00  returns 0x01 (0001ms, 6409ms total)
T3110 1398:272 JLINK_ReadMemU32(0xE0001058, 0x0001 Items, ...) -- CPU_ReadMem(4 bytes @ 0xE0001058) - Data: 00 00 00 00  returns 0x01 (0001ms, 6410ms total)
T3110 1398:273 JLINK_ReadReg(R0)  returns 0x00000500 (0000ms, 6410ms total)
T3110 1398:273 JLINK_ReadReg(R1)  returns 0x05FA0500 (0000ms, 6410ms total)
T3110 1398:273 JLINK_ReadReg(R2)  returns 0xE000ED0C (0000ms, 6410ms total)
T3110 1398:273 JLINK_ReadReg(R3)  returns 0x40013800 (0000ms, 6410ms total)
T3110 1398:273 JLINK_ReadReg(R4)  returns 0x00000000 (0000ms, 6410ms total)
T3110 1398:273 JLINK_ReadReg(R5)  returns 0x200000BC (0000ms, 6410ms total)
T3110 1398:273 JLINK_ReadReg(R6)  returns 0x00000000 (0000ms, 6410ms total)
T3110 1398:273 JLINK_ReadReg(R7)  returns 0x00000000 (0000ms, 6410ms total)
T3110 1398:273 JLINK_ReadReg(R8)  returns 0x00000000 (0000ms, 6410ms total)
T3110 1398:273 JLINK_ReadReg(R9)  returns 0x20000160 (0000ms, 6410ms total)
T3110 1398:273 JLINK_ReadReg(R10)  returns 0x08004468 (0000ms, 6410ms total)
T3110 1398:273 JLINK_ReadReg(R11)  returns 0x00000000 (0000ms, 6410ms total)
T3110 1398:273 JLINK_ReadReg(R12)  returns 0x00000400 (0000ms, 6410ms total)
T3110 1398:273 JLINK_ReadReg(R13 (SP))  returns 0x20000720 (0000ms, 6410ms total)
T3110 1398:274 JLINK_ReadReg(R14)  returns 0x0800019D (0000ms, 6410ms total)
T3110 1398:274 JLINK_ReadReg(R15 (PC))  returns 0x0800019C (0000ms, 6410ms total)
T3110 1398:274 JLINK_ReadReg(XPSR)  returns 0x21000000 (0000ms, 6410ms total)
T3110 1398:274 JLINK_ReadReg(MSP)  returns 0x20000720 (0000ms, 6410ms total)
T3110 1398:274 JLINK_ReadReg(PSP)  returns 0x20001000 (0000ms, 6410ms total)
T3110 1398:274 JLINK_ReadReg(CFBP)  returns 0x00000000 (0000ms, 6410ms total)
T12F8 1398:276 JLINK_ReadMemU32(0xE0001004, 0x0001 Items, ...) -- CPU_ReadMem(4 bytes @ 0xE0001004) - Data: F4 19 00 00  returns 0x01 (0000ms, 6410ms total)
T12F8 1398:276 JLINK_ReadMemEx(0x40011000, 0x0004 Bytes, ..., Flags = 0x02000000) -- CPU_ReadMem(4 bytes @ 0x40011000) - Data: 44 44 44 44  returns 0x04 (0001ms, 6411ms total)
T12F8 1398:277 JLINK_ReadMemEx(0x40011004, 0x0004 Bytes, ..., Flags = 0x02000000) -- CPU_ReadMem(4 bytes @ 0x40011004) - Data: 44 44 44 44  returns 0x04 (0001ms, 6412ms total)
T12F8 1398:278 JLINK_ReadMemEx(0x40011008, 0x0004 Bytes, ..., Flags = 0x02000000) -- CPU_ReadMem(4 bytes @ 0x40011008) - Data: 00 00 00 00  returns 0x04 (0000ms, 6412ms total)
T12F8 1398:278 JLINK_ReadMemEx(0x4001100C, 0x0004 Bytes, ..., Flags = 0x02000000) -- CPU_ReadMem(4 bytes @ 0x4001100C) - Data: 00 00 00 00  returns 0x04 (0002ms, 6414ms total)
T12F8 1398:280 JLINK_ReadMemEx(0x40011010, 0x0004 Bytes, ..., Flags = 0x02000000) -- CPU_ReadMem(4 bytes @ 0x40011010) - Data: 00 00 00 00  returns 0x04 (0000ms, 6414ms total)
T12F8 1398:280 JLINK_ReadMemEx(0x40011014, 0x0004 Bytes, ..., Flags = 0x02000000) -- CPU_ReadMem(4 bytes @ 0x40011014) - Data: 00 00 00 00  returns 0x04 (0001ms, 6415ms total)
T12F8 1398:281 JLINK_ReadMemEx(0x40011018, 0x0004 Bytes, ..., Flags = 0x02000000) -- CPU_ReadMem(4 bytes @ 0x40011018) - Data: 00 00 00 00  returns 0x04 (0001ms, 6416ms total)
T12F8 1398:282 JLINK_ReadMemEx(0x40021018, 0x0004 Bytes, ..., Flags = 0x02000000) -- CPU_ReadMem(4 bytes @ 0x40021018) - Data: 04 40 00 00  returns 0x04 (0001ms, 6417ms total)
T12F8 1398:283 JLINK_ReadMemEx(0x4002100C, 0x0004 Bytes, ..., Flags = 0x02000000) -- CPU_ReadMem(4 bytes @ 0x4002100C) - Data: 00 00 00 00  returns 0x04 (0000ms, 6417ms total)
T12F8 1398:295 JLINK_ReadMemEx(0x0800019C, 0x003C Bytes, ..., Flags = 0x02000000) -- CPU_ReadMem(128 bytes @ 0x08000180) -- Updating C cache (128 bytes @ 0x08000180) -- Read from C cache (60 bytes @ 0x0800019C) - Data: 00 F0 2E F9 00 F0 EF F9 00 21 4F F4 61 70 00 F0 ...  returns 0x3C (0002ms, 6419ms total)
T3110 1398:367 JLINK_ReadMemEx(0x0800019C, 0x0002 Bytes, ..., Flags = 0x02000000) -- Read from C cache (2 bytes @ 0x0800019C) - Data: 00 F0  returns 0x02 (0000ms, 6419ms total)
T3110 1398:367 JLINK_SetBPEx(Addr = 0x080001A0, Type = 0xFFFFFFF2)  returns 0x00000009 (0000ms, 6419ms total)
T3110 1398:367 JLINK_SetBPEx(Addr = 0x0800048E, Type = 0xFFFFFFF2)  returns 0x0000000A (0000ms, 6419ms total)
T3110 1398:367 JLINK_Go() -- CPU_WriteMem(4 bytes @ 0xE0002000) -- CPU_WriteMem(4 bytes @ 0xE0002000) -- CPU_ReadMem(4 bytes @ 0xE0001000) -- CPU_WriteMem(4 bytes @ 0xE0002008) (0003ms, 6422ms total)
T3110 1398:471 JLINK_IsHalted()  returns TRUE (0003ms, 6425ms total)
T3110 1398:474 JLINK_Halt()  returns 0x00 (0000ms, 6422ms total)
T3110 1398:474 JLINK_IsHalted()  returns TRUE (0000ms, 6422ms total)
T3110 1398:474 JLINK_IsHalted()  returns TRUE (0000ms, 6422ms total)
T3110 1398:474 JLINK_IsHalted()  returns TRUE (0000ms, 6422ms total)
T3110 1398:474 JLINK_ReadReg(R15 (PC))  returns 0x080001A0 (0000ms, 6422ms total)
T3110 1398:474 JLINK_ReadReg(XPSR)  returns 0x61000000 (0000ms, 6422ms total)
T3110 1398:474 JLINK_ClrBPEx(BPHandle = 0x00000009)  returns 0x00 (0000ms, 6422ms total)
T3110 1398:474 JLINK_ClrBPEx(BPHandle = 0x0000000A)  returns 0x00 (0000ms, 6422ms total)
T3110 1398:474 JLINK_ReadMemU32(0xE000ED30, 0x0001 Items, ...) -- CPU_ReadMem(4 bytes @ 0xE000ED30) - Data: 03 00 00 00  returns 0x01 (0001ms, 6423ms total)
T3110 1398:475 JLINK_ReadMemU32(0xE0001028, 0x0001 Items, ...) -- CPU_ReadMem(4 bytes @ 0xE0001028) - Data: 00 00 00 00  returns 0x01 (0001ms, 6424ms total)
T3110 1398:477 JLINK_ReadMemU32(0xE0001038, 0x0001 Items, ...) -- CPU_ReadMem(4 bytes @ 0xE0001038) - Data: 00 02 00 00  returns 0x01 (0000ms, 6424ms total)
T3110 1398:477 JLINK_ReadMemU32(0xE0001048, 0x0001 Items, ...) -- CPU_ReadMem(4 bytes @ 0xE0001048) - Data: 00 00 00 00  returns 0x01 (0001ms, 6425ms total)
T3110 1398:478 JLINK_ReadMemU32(0xE0001058, 0x0001 Items, ...) -- CPU_ReadMem(4 bytes @ 0xE0001058) - Data: 00 00 00 00  returns 0x01 (0001ms, 6426ms total)
T3110 1398:479 JLINK_ReadReg(R0)  returns 0x00000000 (0000ms, 6426ms total)
T3110 1398:479 JLINK_ReadReg(R1)  returns 0x422201B4 (0000ms, 6426ms total)
T3110 1398:479 JLINK_ReadReg(R2)  returns 0x40011000 (0000ms, 6426ms total)
T3110 1398:479 JLINK_ReadReg(R3)  returns 0x10032000 (0000ms, 6426ms total)
T3110 1398:479 JLINK_ReadReg(R4)  returns 0x00000000 (0000ms, 6426ms total)
T3110 1398:479 JLINK_ReadReg(R5)  returns 0x200000BC (0001ms, 6427ms total)
T3110 1398:480 JLINK_ReadReg(R6)  returns 0x00000000 (0000ms, 6427ms total)
T3110 1398:480 JLINK_ReadReg(R7)  returns 0x00000000 (0000ms, 6427ms total)
T3110 1398:480 JLINK_ReadReg(R8)  returns 0x00000000 (0000ms, 6427ms total)
T3110 1398:480 JLINK_ReadReg(R9)  returns 0x20000160 (0000ms, 6427ms total)
T3110 1398:480 JLINK_ReadReg(R10)  returns 0x08004468 (0000ms, 6427ms total)
T3110 1398:480 JLINK_ReadReg(R11)  returns 0x00000000 (0000ms, 6427ms total)
T3110 1398:480 JLINK_ReadReg(R12)  returns 0x00002000 (0000ms, 6427ms total)
T3110 1398:480 JLINK_ReadReg(R13 (SP))  returns 0x20000720 (0000ms, 6427ms total)
T3110 1398:480 JLINK_ReadReg(R14)  returns 0x08000421 (0000ms, 6427ms total)
T3110 1398:480 JLINK_ReadReg(R15 (PC))  returns 0x080001A0 (0000ms, 6427ms total)
T3110 1398:480 JLINK_ReadReg(XPSR)  returns 0x61000000 (0000ms, 6427ms total)
T3110 1398:480 JLINK_ReadReg(MSP)  returns 0x20000720 (0000ms, 6427ms total)
T3110 1398:480 JLINK_ReadReg(PSP)  returns 0x20001000 (0000ms, 6427ms total)
T3110 1398:480 JLINK_ReadReg(CFBP)  returns 0x00000000 (0001ms, 6428ms total)
T12F8 1398:481 JLINK_ReadMemU32(0xE0001004, 0x0001 Items, ...) -- CPU_ReadMem(4 bytes @ 0xE0001004) - Data: 5E 1B 00 00  returns 0x01 (0001ms, 6429ms total)
T12F8 1398:482 JLINK_ReadMemEx(0x40011000, 0x0004 Bytes, ..., Flags = 0x02000000) -- CPU_ReadMem(4 bytes @ 0x40011000) - Data: 44 44 44 44  returns 0x04 (0001ms, 6430ms total)
T12F8 1398:483 JLINK_ReadMemEx(0x40011004, 0x0004 Bytes, ..., Flags = 0x02000000) -- CPU_ReadMem(4 bytes @ 0x40011004) - Data: 44 44 34 44  returns 0x04 (0001ms, 6431ms total)
T12F8 1398:484 JLINK_ReadMemEx(0x40011008, 0x0004 Bytes, ..., Flags = 0x02000000) -- CPU_ReadMem(4 bytes @ 0x40011008) - Data: 00 C0 00 00  returns 0x04 (0001ms, 6432ms total)
T12F8 1398:485 JLINK_ReadMemEx(0x4001100C, 0x0004 Bytes, ..., Flags = 0x02000000) -- CPU_ReadMem(4 bytes @ 0x4001100C) - Data: 00 00 00 00  returns 0x04 (0000ms, 6432ms total)
T12F8 1398:485 JLINK_ReadMemEx(0x40011010, 0x0004 Bytes, ..., Flags = 0x02000000) -- CPU_ReadMem(4 bytes @ 0x40011010) - Data: 00 00 00 00  returns 0x04 (0001ms, 6433ms total)
T12F8 1398:486 JLINK_ReadMemEx(0x40011014, 0x0004 Bytes, ..., Flags = 0x02000000) -- CPU_ReadMem(4 bytes @ 0x40011014) - Data: 00 00 00 00  returns 0x04 (0001ms, 6434ms total)
T12F8 1398:487 JLINK_ReadMemEx(0x40011018, 0x0004 Bytes, ..., Flags = 0x02000000) -- CPU_ReadMem(4 bytes @ 0x40011018) - Data: 00 00 00 00  returns 0x04 (0001ms, 6435ms total)
T12F8 1398:492 JLINK_ReadMemEx(0x40021018, 0x0004 Bytes, ..., Flags = 0x02000000) -- CPU_ReadMem(4 bytes @ 0x40021018) - Data: 14 40 00 00  returns 0x04 (0002ms, 6437ms total)
T12F8 1398:494 JLINK_ReadMemEx(0x4002100C, 0x0004 Bytes, ..., Flags = 0x02000000) -- CPU_ReadMem(4 bytes @ 0x4002100C) - Data: 00 00 00 00  returns 0x04 (0000ms, 6437ms total)
T12F8 1398:504 JLINK_ReadMemEx(0x0800019C, 0x003C Bytes, ..., Flags = 0x02000000) -- CPU_ReadMem(128 bytes @ 0x08000180) -- Updating C cache (128 bytes @ 0x08000180) -- Read from C cache (60 bytes @ 0x0800019C) - Data: 00 F0 2E F9 00 F0 EF F9 00 21 4F F4 61 70 00 F0 ...  returns 0x3C (0002ms, 6439ms total)
T3110 1398:549 JLINK_ReadMemEx(0x080001A0, 0x0002 Bytes, ..., Flags = 0x02000000) -- Read from C cache (2 bytes @ 0x080001A0) - Data: 00 F0  returns 0x02 (0000ms, 6439ms total)
T3110 1398:549 JLINK_SetBPEx(Addr = 0x080001A4, Type = 0xFFFFFFF2)  returns 0x0000000B (0000ms, 6439ms total)
T3110 1398:549 JLINK_SetBPEx(Addr = 0x0800048E, Type = 0xFFFFFFF2)  returns 0x0000000C (0001ms, 6440ms total)
T3110 1398:550 JLINK_Go() -- CPU_WriteMem(4 bytes @ 0xE0002000) -- CPU_WriteMem(4 bytes @ 0xE0002000) -- CPU_ReadMem(4 bytes @ 0xE0001000) -- CPU_WriteMem(4 bytes @ 0xE0002008) (0002ms, 6442ms total)
T3110 1398:653 JLINK_IsHalted()  returns TRUE (0003ms, 6445ms total)
T3110 1398:656 JLINK_Halt()  returns 0x00 (0000ms, 6442ms total)
T3110 1398:656 JLINK_IsHalted()  returns TRUE (0000ms, 6442ms total)
T3110 1398:656 JLINK_IsHalted()  returns TRUE (0000ms, 6442ms total)
T3110 1398:656 JLINK_IsHalted()  returns TRUE (0000ms, 6442ms total)
T3110 1398:656 JLINK_ReadReg(R15 (PC))  returns 0x080001A4 (0000ms, 6442ms total)
T3110 1398:656 JLINK_ReadReg(XPSR)  returns 0x61000000 (0000ms, 6442ms total)
T3110 1398:656 JLINK_ClrBPEx(BPHandle = 0x0000000B)  returns 0x00 (0000ms, 6442ms total)
T3110 1398:656 JLINK_ClrBPEx(BPHandle = 0x0000000C)  returns 0x00 (0000ms, 6442ms total)
T3110 1398:657 JLINK_ReadMemU32(0xE000ED30, 0x0001 Items, ...) -- CPU_ReadMem(4 bytes @ 0xE000ED30) - Data: 03 00 00 00  returns 0x01 (0000ms, 6442ms total)
T3110 1398:657 JLINK_ReadMemU32(0xE0001028, 0x0001 Items, ...) -- CPU_ReadMem(4 bytes @ 0xE0001028) - Data: 00 00 00 00  returns 0x01 (0001ms, 6443ms total)
T3110 1398:658 JLINK_ReadMemU32(0xE0001038, 0x0001 Items, ...) -- CPU_ReadMem(4 bytes @ 0xE0001038) - Data: 00 02 00 00  returns 0x01 (0001ms, 6444ms total)
T3110 1398:659 JLINK_ReadMemU32(0xE0001048, 0x0001 Items, ...) -- CPU_ReadMem(4 bytes @ 0xE0001048) - Data: 00 00 00 00  returns 0x01 (0001ms, 6445ms total)
T3110 1398:660 JLINK_ReadMemU32(0xE0001058, 0x0001 Items, ...) -- CPU_ReadMem(4 bytes @ 0xE0001058) - Data: 00 00 00 00  returns 0x01 (0000ms, 6445ms total)
T3110 1398:661 JLINK_ReadReg(R0)  returns 0x00000000 (0000ms, 6445ms total)
T3110 1398:661 JLINK_ReadReg(R1)  returns 0x42210000 (0000ms, 6445ms total)
T3110 1398:661 JLINK_ReadReg(R2)  returns 0x40010C00 (0000ms, 6445ms total)
T3110 1398:661 JLINK_ReadReg(R3)  returns 0x1003C010 (0000ms, 6445ms total)
T3110 1398:661 JLINK_ReadReg(R4)  returns 0x00000000 (0000ms, 6445ms total)
T3110 1398:661 JLINK_ReadReg(R5)  returns 0x200000BC (0000ms, 6445ms total)
T3110 1398:661 JLINK_ReadReg(R6)  returns 0x00000000 (0000ms, 6445ms total)
T3110 1398:661 JLINK_ReadReg(R7)  returns 0x00000000 (0000ms, 6445ms total)
T3110 1398:661 JLINK_ReadReg(R8)  returns 0x00000000 (0000ms, 6445ms total)
T3110 1398:661 JLINK_ReadReg(R9)  returns 0x20000160 (0000ms, 6445ms total)
T3110 1398:661 JLINK_ReadReg(R10)  returns 0x08004468 (0000ms, 6445ms total)
T3110 1398:661 JLINK_ReadReg(R11)  returns 0x00000000 (0000ms, 6445ms total)
T3110 1398:661 JLINK_ReadReg(R12)  returns 0x00000010 (0000ms, 6445ms total)
T3110 1398:661 JLINK_ReadReg(R13 (SP))  returns 0x20000720 (0000ms, 6445ms total)
T3110 1398:662 JLINK_ReadReg(R14)  returns 0x080005BF (0000ms, 6445ms total)
T3110 1398:662 JLINK_ReadReg(R15 (PC))  returns 0x080001A4 (0000ms, 6445ms total)
T3110 1398:662 JLINK_ReadReg(XPSR)  returns 0x61000000 (0000ms, 6445ms total)
T3110 1398:662 JLINK_ReadReg(MSP)  returns 0x20000720 (0000ms, 6445ms total)
T3110 1398:662 JLINK_ReadReg(PSP)  returns 0x20001000 (0000ms, 6445ms total)
T3110 1398:662 JLINK_ReadReg(CFBP)  returns 0x00000000 (0000ms, 6445ms total)
T12F8 1398:663 JLINK_ReadMemU32(0xE0001004, 0x0001 Items, ...) -- CPU_ReadMem(4 bytes @ 0xE0001004) - Data: 4E 1F 00 00  returns 0x01 (0001ms, 6446ms total)
T12F8 1398:664 JLINK_ReadMemEx(0x40011000, 0x0004 Bytes, ..., Flags = 0x02000000) -- CPU_ReadMem(4 bytes @ 0x40011000) - Data: 44 44 44 44  returns 0x04 (0001ms, 6447ms total)
T12F8 1398:665 JLINK_ReadMemEx(0x40011004, 0x0004 Bytes, ..., Flags = 0x02000000) -- CPU_ReadMem(4 bytes @ 0x40011004) - Data: 44 44 34 44  returns 0x04 (0001ms, 6448ms total)
T12F8 1398:666 JLINK_ReadMemEx(0x40011008, 0x0004 Bytes, ..., Flags = 0x02000000) -- CPU_ReadMem(4 bytes @ 0x40011008) - Data: 00 C0 00 00  returns 0x04 (0001ms, 6449ms total)
T12F8 1398:667 JLINK_ReadMemEx(0x4001100C, 0x0004 Bytes, ..., Flags = 0x02000000) -- CPU_ReadMem(4 bytes @ 0x4001100C) - Data: 00 00 00 00  returns 0x04 (0000ms, 6449ms total)
T12F8 1398:667 JLINK_ReadMemEx(0x40011010, 0x0004 Bytes, ..., Flags = 0x02000000) -- CPU_ReadMem(4 bytes @ 0x40011010) - Data: 00 00 00 00  returns 0x04 (0001ms, 6450ms total)
T12F8 1398:668 JLINK_ReadMemEx(0x40011014, 0x0004 Bytes, ..., Flags = 0x02000000) -- CPU_ReadMem(4 bytes @ 0x40011014) - Data: 00 00 00 00  returns 0x04 (0001ms, 6451ms total)
T12F8 1398:669 JLINK_ReadMemEx(0x40011018, 0x0004 Bytes, ..., Flags = 0x02000000) -- CPU_ReadMem(4 bytes @ 0x40011018) - Data: 00 00 00 00  returns 0x04 (0001ms, 6452ms total)
T12F8 1398:670 JLINK_ReadMemEx(0x40021018, 0x0004 Bytes, ..., Flags = 0x02000000) -- CPU_ReadMem(4 bytes @ 0x40021018) - Data: 1D 40 00 00  returns 0x04 (0000ms, 6452ms total)
T12F8 1398:670 JLINK_ReadMemEx(0x4002100C, 0x0004 Bytes, ..., Flags = 0x02000000) -- CPU_ReadMem(4 bytes @ 0x4002100C) - Data: 00 00 00 00  returns 0x04 (0001ms, 6453ms total)
